Time,,x(t),vx(t),,y(t),vy(t),,z(t),vz(t)
0,,0,5.879,,-10122,3.75,,-55192,2.044
0.5,,2.9395,5.879,,-10120.1,3.75001,,-55191,2.04406
1,,5.879,5.879,,-10118.2,3.75002,,-55190,2.04412
1.5,,8.8185,5.879,,-10116.4,3.75003,,-55188.9,2.04419
2,,11.758,5.879,,-10114.5,3.75005,,-55187.9,2.04425
2.5,,14.6975,5.879,,-10112.6,3.75006,,-55186.9,2.04431
3,,17.637,5.879,,-10110.7,3.75007,,-55185.9,2.04437
3.5,,20.5765,5.879,,-10108.9,3.75008,,-55184.8,2.04444
4,,23.516,5.879,,-10107,3.75009,,-55183.8,2.0445
4.5,,26.4555,5.879,,-10105.1,3.7501,,-55182.8,2.04456
5,,29.395,5.879,,-10103.2,3.75011,,-55181.8,2.04462
5.5,,32.3345,5.879,,-10101.4,3.75013,,-55180.8,2.04469
6,,35.274,5.879,,-10099.5,3.75014,,-55179.7,2.04475
6.5,,38.2135,5.879,,-10097.6,3.75015,,-55178.7,2.04481
7,,41.153,5.879,,-10095.7,3.75016,,-55177.7,2.04487
7.5,,44.0925,5.879,,-10093.9,3.75017,,-55176.7,2.04493
8,,47.032,5.879,,-10092,3.75018,,-55175.6,2.045
8.5,,49.9715,5.879,,-10090.1,3.75019,,-55174.6,2.04506
9,,52.911,5.879,,-10088.2,3.75021,,-55173.6,2.04512
9.5,,55.8505,5.879,,-10086.4,3.75022,,-55172.6,2.04518
10,,58.79,5.879,,-10084.5,3.75023,,-55171.6,2.04525
10.5,,61.7295,5.879,,-10082.6,3.75024,,-55170.5,2.04531
11,,64.669,5.879,,-10080.7,3.75025,,-55169.5,2.04537
11.5,,67.6085,5.879,,-10078.9,3.75026,,-55168.5,2.04543
12,,70.548,5.879,,-10077,3.75027,,-55167.5,2.0455
12.5,,73.4875,5.879,,-10075.1,3.75029,,-55166.4,2.04556
13,,76.427,5.879,,-10073.2,3.7503,,-55165.4,2.04562
13.5,,79.3665,5.879,,-10071.4,3.75031,,-55164.4,2.04568
14,,82.306,5.879,,-10069.5,3.75032,,-55163.4,2.04574
14.5,,85.2455,5.879,,-10067.6,3.75033,,-55162.3,2.04581
15,,88.185,5.879,,-10065.7,3.75034,,-55161.3,2.04587
15.5,,91.1245,5.879,,-10063.9,3.75035,,-55160.3,2.04593
16,,94.064,5.879,,-10062,3.75036,,-55159.3,2.04599
16.5,,97.0035,5.879,,-10060.1,3.75038,,-55158.3,2.04606
17,,99.943,5.879,,-10058.2,3.75039,,-55157.2,2.04612
17.5,,102.882,5.879,,-10056.4,3.7504,,-55156.2,2.04618
18,,105.822,5.879,,-10054.5,3.75041,,-55155.2,2.04624
18.5,,108.761,5.879,,-10052.6,3.75042,,-55154.2,2.04631
19,,111.701,5.879,,-10050.7,3.75043,,-55153.1,2.04637
19.5,,114.64,5.879,,-10048.9,3.75044,,-55152.1,2.04643
20,,117.58,5.879,,-10047,3.75046,,-55151.1,2.04649
20.5,,120.519,5.879,,-10045.1,3.75047,,-55150.1,2.04656
21,,123.459,5.879,,-10043.2,3.75048,,-55149,2.04662
21.5,,126.398,5.879,,-10041.4,3.75049,,-55148,2.04668
22,,129.338,5.879,,-10039.5,3.7505,,-55147,2.04674
22.5,,132.277,5.879,,-10037.6,3.75051,,-55146,2.04681
23,,135.217,5.879,,-10035.7,3.75052,,-55145,2.04687
23.5,,138.156,5.879,,-10033.9,3.75054,,-55143.9,2.04693
24,,141.096,5.879,,-10032,3.75055,,-55142.9,2.04699
24.5,,144.035,5.879,,-10030.1,3.75056,,-55141.9,2.04705
25,,146.975,5.879,,-10028.2,3.75057,,-55140.9,2.04712
25.5,,149.914,5.879,,-10026.4,3.75058,,-55139.8,2.04718
26,,152.854,5.879,,-10024.5,3.75059,,-55138.8,2.04724
26.5,,155.793,5.879,,-10022.6,3.7506,,-55137.8,2.0473
27,,158.733,5.879,,-10020.7,3.75061,,-55136.8,2.04737
27.5,,161.672,5.87899,,-10018.9,3.75063,,-55135.7,2.04743
28,,164.612,5.87899,,-10017,3.75064,,-55134.7,2.04749
28.5,,167.551,5.87899,,-10015.1,3.75065,,-55133.7,2.04755
29,,170.491,5.87899,,-10013.2,3.75066,,-55132.7,2.04762
29.5,,173.43,5.87899,,-10011.4,3.75067,,-55131.6,2.04768
30,,176.37,5.87899,,-10009.5,3.75068,,-55130.6,2.04774
30.5,,179.309,5.87899,,-10007.6,3.75069,,-55129.6,2.0478
31,,182.249,5.87899,,-10005.7,3.75071,,-55128.6,2.04787
31.5,,185.188,5.87899,,-10003.9,3.75072,,-55127.6,2.04793
32,,188.128,5.87899,,-10002,3.75073,,-55126.5,2.04799
32.5,,191.067,5.87899,,-10000.1,3.75074,,-55125.5,2.04805
33,,194.007,5.87899,,-9998.24,3.75075,,-55124.5,2.04812
33.5,,196.946,5.87899,,-9996.36,3.75076,,-55123.5,2.04818
34,,199.886,5.87899,,-9994.49,3.75077,,-55122.4,2.04824
34.5,,202.825,5.87899,,-9992.61,3.75078,,-55121.4,2.0483
35,,205.765,5.87899,,-9990.74,3.7508,,-55120.4,2.04837
35.5,,208.704,5.87899,,-9988.86,3.75081,,-55119.4,2.04843
36,,211.644,5.87899,,-9986.99,3.75082,,-55118.3,2.04849
36.5,,214.583,5.87899,,-9985.11,3.75083,,-55117.3,2.04855
37,,217.523,5.87899,,-9983.23,3.75084,,-55116.3,2.04862
37.5,,220.462,5.87899,,-9981.36,3.75085,,-55115.3,2.04868
38,,223.402,5.87899,,-9979.48,3.75086,,-55114.2,2.04874
38.5,,226.341,5.87899,,-9977.61,3.75088,,-55113.2,2.0488
39,,229.281,5.87899,,-9975.73,3.75089,,-55112.2,2.04887
39.5,,232.22,5.87899,,-9973.86,3.7509,,-55111.2,2.04893
40,,235.16,5.87899,,-9971.98,3.75091,,-55110.1,2.04899
40.5,,238.099,5.87899,,-9970.11,3.75092,,-55109.1,2.04905
41,,241.039,5.87899,,-9968.23,3.75093,,-55108.1,2.04912
41.5,,243.978,5.87899,,-9966.36,3.75094,,-55107.1,2.04918
42,,246.918,5.87899,,-9964.48,3.75095,,-55106,2.04924
42.5,,249.857,5.87899,,-9962.6,3.75097,,-55105,2.0493
43,,252.797,5.87899,,-9960.73,3.75098,,-55104,2.04937
43.5,,255.736,5.87899,,-9958.85,3.75099,,-55103,2.04943
44,,258.676,5.87899,,-9956.98,3.751,,-55101.9,2.04949
44.5,,261.615,5.87899,,-9955.1,3.75101,,-55100.9,2.04955
45,,264.555,5.87899,,-9953.23,3.75102,,-55099.9,2.04962
45.5,,267.494,5.87899,,-9951.35,3.75103,,-55098.9,2.04968
46,,270.434,5.87899,,-9949.48,3.75104,,-55097.8,2.04974
46.5,,273.373,5.87899,,-9947.6,3.75106,,-55096.8,2.0498
47,,276.313,5.87899,,-9945.72,3.75107,,-55095.8,2.04987
47.5,,279.252,5.87898,,-9943.85,3.75108,,-55094.8,2.04993
48,,282.192,5.87898,,-9941.97,3.75109,,-55093.7,2.04999
48.5,,285.131,5.87898,,-9940.1,3.7511,,-55092.7,2.05005
49,,288.071,5.87898,,-9938.22,3.75111,,-55091.7,2.05012
49.5,,291.01,5.87898,,-9936.35,3.75112,,-55090.7,2.05018
50,,293.95,5.87898,,-9934.47,3.75114,,-55089.6,2.05024
50.5,,296.889,5.87898,,-9932.6,3.75115,,-55088.6,2.05031
51,,299.829,5.87898,,-9930.72,3.75116,,-55087.6,2.05037
51.5,,302.768,5.87898,,-9928.84,3.75117,,-55086.6,2.05043
52,,305.708,5.87898,,-9926.97,3.75118,,-55085.5,2.05049
52.5,,308.647,5.87898,,-9925.09,3.75119,,-55084.5,2.05056
53,,311.587,5.87898,,-9923.22,3.7512,,-55083.5,2.05062
53.5,,314.526,5.87898,,-9921.34,3.75121,,-55082.5,2.05068
54,,317.466,5.87898,,-9919.47,3.75123,,-55081.4,2.05074
54.5,,320.405,5.87898,,-9917.59,3.75124,,-55080.4,2.05081
55,,323.345,5.87898,,-9915.72,3.75125,,-55079.4,2.05087
55.5,,326.284,5.87898,,-9913.84,3.75126,,-55078.4,2.05093
56,,329.224,5.87898,,-9911.96,3.75127,,-55077.3,2.05099
56.5,,332.163,5.87898,,-9910.09,3.75128,,-55076.3,2.05106
57,,335.103,5.87898,,-9908.21,3.75129,,-55075.3,2.05112
57.5,,338.042,5.87898,,-9906.34,3.7513,,-55074.3,2.05118
58,,340.982,5.87898,,-9904.46,3.75132,,-55073.2,2.05124
58.5,,343.921,5.87898,,-9902.59,3.75133,,-55072.2,2.05131
59,,346.861,5.87898,,-9900.71,3.75134,,-55071.2,2.05137
59.5,,349.8,5.87898,,-9898.83,3.75135,,-55070.2,2.05143
60,,352.74,5.87898,,-9896.96,3.75136,,-55069.1,2.05149
60.5,,355.679,5.87898,,-9895.08,3.75137,,-55068.1,2.05156
61,,358.618,5.87898,,-9893.21,3.75138,,-55067.1,2.05162
61.5,,361.558,5.87897,,-9891.33,3.75139,,-55066.1,2.05168
62,,364.497,5.87897,,-9889.46,3.75141,,-55065,2.05175
62.5,,367.437,5.87897,,-9887.58,3.75142,,-55064,2.05181
63,,370.376,5.87897,,-9885.7,3.75143,,-55063,2.05187
63.5,,373.316,5.87897,,-9883.83,3.75144,,-55062,2.05193
64,,376.255,5.87897,,-9881.95,3.75145,,-55060.9,2.052
64.5,,379.195,5.87897,,-9880.08,3.75146,,-55059.9,2.05206
65,,382.134,5.87897,,-9878.2,3.75147,,-55058.9,2.05212
65.5,,385.074,5.87897,,-9876.33,3.75148,,-55057.9,2.05218
66,,388.013,5.87897,,-9874.45,3.7515,,-55056.8,2.05225
66.5,,390.953,5.87897,,-9872.57,3.75151,,-55055.8,2.05231
67,,393.892,5.87897,,-9870.7,3.75152,,-55054.8,2.05237
67.5,,396.832,5.87897,,-9868.82,3.75153,,-55053.7,2.05244
68,,399.771,5.87897,,-9866.95,3.75154,,-55052.7,2.0525
68.5,,402.711,5.87897,,-9865.07,3.75155,,-55051.7,2.05256
69,,405.65,5.87897,,-9863.2,3.75156,,-55050.7,2.05262
69.5,,408.59,5.87897,,-9861.32,3.75157,,-55049.6,2.05269
70,,411.529,5.87897,,-9859.44,3.75159,,-55048.6,2.05275
70.5,,414.469,5.87897,,-9857.57,3.7516,,-55047.6,2.05281
71,,417.408,5.87897,,-9855.69,3.75161,,-55046.6,2.05287
71.5,,420.348,5.87897,,-9853.82,3.75162,,-55045.5,2.05294
72,,423.287,5.87897,,-9851.94,3.75163,,-55044.5,2.053
72.5,,426.227,5.87896,,-9850.07,3.75164,,-55043.5,2.05306
73,,429.166,5.87896,,-9848.19,3.75165,,-55042.5,2.05313
73.5,,432.106,5.87896,,-9846.31,3.75166,,-55041.4,2.05319
74,,435.045,5.87896,,-9844.44,3.75168,,-55040.4,2.05325
74.5,,437.985,5.87896,,-9842.56,3.75169,,-55039.4,2.05331
75,,440.924,5.87896,,-9840.69,3.7517,,-55038.3,2.05338
75.5,,443.864,5.87896,,-9838.81,3.75171,,-55037.3,2.05344
76,,446.803,5.87896,,-9836.93,3.75172,,-55036.3,2.0535
76.5,,449.743,5.87896,,-9835.06,3.75173,,-55035.3,2.05356
77,,452.682,5.87896,,-9833.18,3.75174,,-55034.2,2.05363
77.5,,455.621,5.87896,,-9831.31,3.75175,,-55033.2,2.05369
78,,458.561,5.87896,,-9829.43,3.75177,,-55032.2,2.05375
78.5,,461.5,5.87896,,-9827.56,3.75178,,-55031.2,2.05382
79,,464.44,5.87896,,-9825.68,3.75179,,-55030.1,2.05388
79.5,,467.379,5.87896,,-9823.8,3.7518,,-55029.1,2.05394
80,,470.319,5.87896,,-9821.93,3.75181,,-55028.1,2.054
80.5,,473.258,5.87896,,-9820.05,3.75182,,-55027.1,2.05407
81,,476.198,5.87896,,-9818.18,3.75183,,-55026,2.05413
81.5,,479.137,5.87896,,-9816.3,3.75184,,-55025,2.05419
82,,482.077,5.87896,,-9814.42,3.75185,,-55024,2.05425
82.5,,485.016,5.87895,,-9812.55,3.75187,,-55022.9,2.05432
83,,487.956,5.87895,,-9810.67,3.75188,,-55021.9,2.05438
83.5,,490.895,5.87895,,-9808.8,3.75189,,-55020.9,2.05444
84,,493.835,5.87895,,-9806.92,3.7519,,-55019.9,2.05451
84.5,,496.774,5.87895,,-9805.04,3.75191,,-55018.8,2.05457
85,,499.714,5.87895,,-9803.17,3.75192,,-55017.8,2.05463
85.5,,502.653,5.87895,,-9801.29,3.75193,,-55016.8,2.05469
86,,505.593,5.87895,,-9799.42,3.75194,,-55015.8,2.05476
86.5,,508.532,5.87895,,-9797.54,3.75196,,-55014.7,2.05482
87,,511.472,5.87895,,-9795.66,3.75197,,-55013.7,2.05488
87.5,,514.411,5.87895,,-9793.79,3.75198,,-55012.7,2.05495
88,,517.35,5.87895,,-9791.91,3.75199,,-55011.6,2.05501
88.5,,520.29,5.87895,,-9790.04,3.752,,-55010.6,2.05507
89,,523.229,5.87895,,-9788.16,3.75201,,-55009.6,2.05513
89.5,,526.169,5.87895,,-9786.28,3.75202,,-55008.6,2.0552
90,,529.108,5.87895,,-9784.41,3.75203,,-55007.5,2.05526
90.5,,532.048,5.87895,,-9782.53,3.75205,,-55006.5,2.05532
91,,534.987,5.87894,,-9780.66,3.75206,,-55005.5,2.05539
91.5,,537.927,5.87894,,-9778.78,3.75207,,-55004.5,2.05545
92,,540.866,5.87894,,-9776.9,3.75208,,-55003.4,2.05551
92.5,,543.806,5.87894,,-9775.03,3.75209,,-55002.4,2.05557
93,,546.745,5.87894,,-9773.15,3.7521,,-55001.4,2.05564
93.5,,549.685,5.87894,,-9771.28,3.75211,,-55000.3,2.0557
94,,552.624,5.87894,,-9769.4,3.75212,,-54999.3,2.05576
94.5,,555.564,5.87894,,-9767.52,3.75213,,-54998.3,2.05583
95,,558.503,5.87894,,-9765.65,3.75215,,-54997.3,2.05589
95.5,,561.443,5.87894,,-9763.77,3.75216,,-54996.2,2.05595
96,,564.382,5.87894,,-9761.9,3.75217,,-54995.2,2.05601
96.5,,567.321,5.87894,,-9760.02,3.75218,,-54994.2,2.05608
97,,570.261,5.87894,,-9758.14,3.75219,,-54993.1,2.05614
97.5,,573.2,5.87894,,-9756.27,3.7522,,-54992.1,2.0562
98,,576.14,5.87894,,-9754.39,3.75221,,-54991.1,2.05627
98.5,,579.079,5.87894,,-9752.52,3.75222,,-54990.1,2.05633
99,,582.019,5.87893,,-9750.64,3.75223,,-54989,2.05639
99.5,,584.958,5.87893,,-9748.76,3.75225,,-54988,2.05645
100,,587.898,5.87893,,-9746.89,3.75226,,-54987,2.05652
100.5,,590.837,5.87893,,-9745.01,3.75227,,-54985.9,2.05658
101,,593.777,5.87893,,-9743.13,3.75228,,-54984.9,2.05664
101.5,,596.716,5.87893,,-9741.26,3.75229,,-54983.9,2.05671
102,,599.656,5.87893,,-9739.38,3.7523,,-54982.9,2.05677
102.5,,602.595,5.87893,,-9737.51,3.75231,,-54981.8,2.05683
103,,605.535,5.87893,,-9735.63,3.75232,,-54980.8,2.0569
103.5,,608.474,5.87893,,-9733.75,3.75234,,-54979.8,2.05696
104,,611.413,5.87893,,-9731.88,3.75235,,-54978.7,2.05702
104.5,,614.353,5.87893,,-9730,3.75236,,-54977.7,2.05708
105,,617.292,5.87893,,-9728.13,3.75237,,-54976.7,2.05715
105.5,,620.232,5.87893,,-9726.25,3.75238,,-54975.7,2.05721
106,,623.171,5.87892,,-9724.37,3.75239,,-54974.6,2.05727
106.5,,626.111,5.87892,,-9722.5,3.7524,,-54973.6,2.05734
107,,629.05,5.87892,,-9720.62,3.75241,,-54972.6,2.0574
107.5,,631.99,5.87892,,-9718.74,3.75242,,-54971.5,2.05746
108,,634.929,5.87892,,-9716.87,3.75244,,-54970.5,2.05752
108.5,,637.869,5.87892,,-9714.99,3.75245,,-54969.5,2.05759
109,,640.808,5.87892,,-9713.12,3.75246,,-54968.5,2.05765
109.5,,643.748,5.87892,,-9711.24,3.75247,,-54967.4,2.05771
110,,646.687,5.87892,,-9709.36,3.75248,,-54966.4,2.05778
110.5,,649.626,5.87892,,-9707.49,3.75249,,-54965.4,2.05784
111,,652.566,5.87892,,-9705.61,3.7525,,-54964.3,2.0579
111.5,,655.505,5.87892,,-9703.73,3.75251,,-54963.3,2.05797
112,,658.445,5.87892,,-9701.86,3.75252,,-54962.3,2.05803
112.5,,661.384,5.87892,,-9699.98,3.75254,,-54961.3,2.05809
113,,664.324,5.87891,,-9698.11,3.75255,,-54960.2,2.05815
113.5,,667.263,5.87891,,-9696.23,3.75256,,-54959.2,2.05822
114,,670.203,5.87891,,-9694.35,3.75257,,-54958.2,2.05828
114.5,,673.142,5.87891,,-9692.48,3.75258,,-54957.1,2.05834
115,,676.082,5.87891,,-9690.6,3.75259,,-54956.1,2.05841
115.5,,679.021,5.87891,,-9688.72,3.7526,,-54955.1,2.05847
116,,681.961,5.87891,,-9686.85,3.75261,,-54954.1,2.05853
116.5,,684.9,5.87891,,-9684.97,3.75262,,-54953,2.0586
117,,687.839,5.87891,,-9683.1,3.75264,,-54952,2.05866
117.5,,690.779,5.87891,,-9681.22,3.75265,,-54951,2.05872
118,,693.718,5.87891,,-9679.34,3.75266,,-54949.9,2.05878
118.5,,696.658,5.87891,,-9677.47,3.75267,,-54948.9,2.05885
119,,699.597,5.87891,,-9675.59,3.75268,,-54947.9,2.05891
119.5,,702.537,5.8789,,-9673.71,3.75269,,-54946.8,2.05897
120,,705.476,5.8789,,-9671.84,3.7527,,-54945.8,2.05904
120.5,,708.416,5.8789,,-9669.96,3.75271,,-54944.8,2.0591
121,,711.355,5.8789,,-9668.08,3.75272,,-54943.8,2.05916
121.5,,714.295,5.8789,,-9666.21,3.75274,,-54942.7,2.05923
122,,717.234,5.8789,,-9664.33,3.75275,,-54941.7,2.05929
122.5,,720.173,5.8789,,-9662.46,3.75276,,-54940.7,2.05935
123,,723.113,5.8789,,-9660.58,3.75277,,-54939.6,2.05942
123.5,,726.052,5.8789,,-9658.7,3.75278,,-54938.6,2.05948
124,,728.992,5.8789,,-9656.83,3.75279,,-54937.6,2.05954
124.5,,731.931,5.8789,,-9654.95,3.7528,,-54936.6,2.0596
125,,734.871,5.8789,,-9653.07,3.75281,,-54935.5,2.05967
125.5,,737.81,5.87889,,-9651.2,3.75282,,-54934.5,2.05973
126,,740.75,5.87889,,-9649.32,3.75284,,-54933.5,2.05979
126.5,,743.689,5.87889,,-9647.44,3.75285,,-54932.4,2.05986
127,,746.628,5.87889,,-9645.57,3.75286,,-54931.4,2.05992
127.5,,749.568,5.87889,,-9643.69,3.75287,,-54930.4,2.05998
128,,752.507,5.87889,,-9641.81,3.75288,,-54929.3,2.06005
128.5,,755.447,5.87889,,-9639.94,3.75289,,-54928.3,2.06011
129,,758.386,5.87889,,-9638.06,3.7529,,-54927.3,2.06017
129.5,,761.326,5.87889,,-9636.19,3.75291,,-54926.3,2.06024
130,,764.265,5.87889,,-9634.31,3.75292,,-54925.2,2.0603
130.5,,767.205,5.87889,,-9632.43,3.75294,,-54924.2,2.06036
131,,770.144,5.87888,,-9630.56,3.75295,,-54923.2,2.06042
131.5,,773.083,5.87888,,-9628.68,3.75296,,-54922.1,2.06049
132,,776.023,5.87888,,-9626.8,3.75297,,-54921.1,2.06055
132.5,,778.962,5.87888,,-9624.93,3.75298,,-54920.1,2.06061
133,,781.902,5.87888,,-9623.05,3.75299,,-54919,2.06068
133.5,,784.841,5.87888,,-9621.17,3.753,,-54918,2.06074
134,,787.781,5.87888,,-9619.3,3.75301,,-54917,2.0608
134.5,,790.72,5.87888,,-9617.42,3.75302,,-54916,2.06087
135,,793.66,5.87888,,-9615.54,3.75303,,-54914.9,2.06093
135.5,,796.599,5.87888,,-9613.67,3.75305,,-54913.9,2.06099
136,,799.538,5.87888,,-9611.79,3.75306,,-54912.9,2.06106
136.5,,802.478,5.87887,,-9609.91,3.75307,,-54911.8,2.06112
137,,805.417,5.87887,,-9608.04,3.75308,,-54910.8,2.06118
137.5,,808.357,5.87887,,-9606.16,3.75309,,-54909.8,2.06125
138,,811.296,5.87887,,-9604.28,3.7531,,-54908.7,2.06131
138.5,,814.236,5.87887,,-9602.41,3.75311,,-54907.7,2.06137
139,,817.175,5.87887,,-9600.53,3.75312,,-54906.7,2.06144
139.5,,820.114,5.87887,,-9598.66,3.75313,,-54905.6,2.0615
140,,823.054,5.87887,,-9596.78,3.75315,,-54904.6,2.06156
140.5,,825.993,5.87887,,-9594.9,3.75316,,-54903.6,2.06162
141,,828.933,5.87887,,-9593.03,3.75317,,-54902.6,2.06169
141.5,,831.872,5.87887,,-9591.15,3.75318,,-54901.5,2.06175
142,,834.812,5.87886,,-9589.27,3.75319,,-54900.5,2.06181
142.5,,837.751,5.87886,,-9587.4,3.7532,,-54899.5,2.06188
143,,840.69,5.87886,,-9585.52,3.75321,,-54898.4,2.06194
143.5,,843.63,5.87886,,-9583.64,3.75322,,-54897.4,2.062
144,,846.569,5.87886,,-9581.77,3.75323,,-54896.4,2.06207
144.5,,849.509,5.87886,,-9579.89,3.75324,,-54895.3,2.06213
145,,852.448,5.87886,,-9578.01,3.75326,,-54894.3,2.06219
145.5,,855.388,5.87886,,-9576.14,3.75327,,-54893.3,2.06226
146,,858.327,5.87886,,-9574.26,3.75328,,-54892.2,2.06232
146.5,,861.266,5.87886,,-9572.38,3.75329,,-54891.2,2.06238
147,,864.206,5.87885,,-9570.51,3.7533,,-54890.2,2.06245
147.5,,867.145,5.87885,,-9568.63,3.75331,,-54889.1,2.06251
148,,870.085,5.87885,,-9566.75,3.75332,,-54888.1,2.06257
148.5,,873.024,5.87885,,-9564.88,3.75333,,-54887.1,2.06264
149,,875.964,5.87885,,-9563,3.75334,,-54886.1,2.0627
149.5,,878.903,5.87885,,-9561.12,3.75335,,-54885,2.06276
150,,881.842,5.87885,,-9559.25,3.75337,,-54884,2.06283
150.5,,884.782,5.87885,,-9557.37,3.75338,,-54883,2.06289
151,,887.721,5.87885,,-9555.49,3.75339,,-54881.9,2.06295
151.5,,890.661,5.87885,,-9553.62,3.7534,,-54880.9,2.06302
152,,893.6,5.87884,,-9551.74,3.75341,,-54879.9,2.06308
152.5,,896.54,5.87884,,-9549.86,3.75342,,-54878.8,2.06314
153,,899.479,5.87884,,-9547.99,3.75343,,-54877.8,2.06321
153.5,,902.418,5.87884,,-9546.11,3.75344,,-54876.8,2.06327
154,,905.358,5.87884,,-9544.23,3.75345,,-54875.7,2.06333
154.5,,908.297,5.87884,,-9542.36,3.75346,,-54874.7,2.06339
155,,911.237,5.87884,,-9540.48,3.75348,,-54873.7,2.06346
155.5,,914.176,5.87884,,-9538.6,3.75349,,-54872.6,2.06352
156,,917.116,5.87884,,-9536.73,3.7535,,-54871.6,2.06358
156.5,,920.055,5.87884,,-9534.85,3.75351,,-54870.6,2.06365
157,,922.994,5.87883,,-9532.97,3.75352,,-54869.5,2.06371
157.5,,925.934,5.87883,,-9531.1,3.75353,,-54868.5,2.06377
158,,928.873,5.87883,,-9529.22,3.75354,,-54867.5,2.06384
158.5,,931.813,5.87883,,-9527.34,3.75355,,-54866.5,2.0639
159,,934.752,5.87883,,-9525.46,3.75356,,-54865.4,2.06396
159.5,,937.691,5.87883,,-9523.59,3.75357,,-54864.4,2.06403
160,,940.631,5.87883,,-9521.71,3.75359,,-54863.4,2.06409
160.5,,943.57,5.87883,,-9519.83,3.7536,,-54862.3,2.06415
161,,946.51,5.87883,,-9517.96,3.75361,,-54861.3,2.06422
161.5,,949.449,5.87882,,-9516.08,3.75362,,-54860.3,2.06428
162,,952.388,5.87882,,-9514.2,3.75363,,-54859.2,2.06434
162.5,,955.328,5.87882,,-9512.33,3.75364,,-54858.2,2.06441
163,,958.267,5.87882,,-9510.45,3.75365,,-54857.2,2.06447
163.5,,961.207,5.87882,,-9508.57,3.75366,,-54856.1,2.06453
164,,964.146,5.87882,,-9506.7,3.75367,,-54855.1,2.0646
164.5,,967.086,5.87882,,-9504.82,3.75368,,-54854.1,2.06466
165,,970.025,5.87882,,-9502.94,3.7537,,-54853,2.06472
165.5,,972.964,5.87882,,-9501.07,3.75371,,-54852,2.06479
166,,975.904,5.87881,,-9499.19,3.75372,,-54851,2.06485
166.5,,978.843,5.87881,,-9497.31,3.75373,,-54849.9,2.06491
167,,981.783,5.87881,,-9495.44,3.75374,,-54848.9,2.06498
167.5,,984.722,5.87881,,-9493.56,3.75375,,-54847.9,2.06504
168,,987.661,5.87881,,-9491.68,3.75376,,-54846.8,2.0651
168.5,,990.601,5.87881,,-9489.81,3.75377,,-54845.8,2.06517
169,,993.54,5.87881,,-9487.93,3.75378,,-54844.8,2.06523
169.5,,996.48,5.87881,,-9486.05,3.75379,,-54843.7,2.06529
170,,999.419,5.87881,,-9484.17,3.75381,,-54842.7,2.06536
170.5,,1002.36,5.8788,,-9482.3,3.75382,,-54841.7,2.06542
171,,1005.3,5.8788,,-9480.42,3.75383,,-54840.6,2.06548
171.5,,1008.24,5.8788,,-9478.54,3.75384,,-54839.6,2.06555
172,,1011.18,5.8788,,-9476.67,3.75385,,-54838.6,2.06561
172.5,,1014.12,5.8788,,-9474.79,3.75386,,-54837.5,2.06567
173,,1017.06,5.8788,,-9472.91,3.75387,,-54836.5,2.06574
173.5,,1019.99,5.8788,,-9471.04,3.75388,,-54835.5,2.0658
174,,1022.93,5.8788,,-9469.16,3.75389,,-54834.4,2.06586
174.5,,1025.87,5.87879,,-9467.28,3.7539,,-54833.4,2.06593
175,,1028.81,5.87879,,-9465.41,3.75391,,-54832.4,2.06599
175.5,,1031.75,5.87879,,-9463.53,3.75393,,-54831.3,2.06605
176,,1034.69,5.87879,,-9461.65,3.75394,,-54830.3,2.06612
176.5,,1037.63,5.87879,,-9459.77,3.75395,,-54829.3,2.06618
